
T05BC 000:548 SEGGER J-Link V4.90 Log File (0000ms, 0261ms total)
T05BC 000:548 DLL Compiled: Jul 28 2014 10:35:20 (0000ms, 0261ms total)
T05BC 000:548 Logging started @ 2017-09-06 08:29 (0000ms, 0261ms total)
T05BC 000:548 JLINK_SetWarnOutHandler(...) (0000ms, 0261ms total)
T05BC 000:548 JLINK_OpenEx(...)
Firmware: J-Link ARM V8 compiled Nov 28 2014 13:44:46
Hardware: V8.00
S/N: 1631096578
Feature(s): RDI,FlashDL,FlashBP,JFlash,GDBFULL  returns O.K. (0259ms, 0520ms total)
T05BC 000:807 JLINK_SetErrorOutHandler(...) (0000ms, 0520ms total)
T05BC 000:807 JLINK_ExecCommand("ProjectFile = "C:\Users\aplex\Desktop\U-Boot_Kernel_DTS(20170721)\src\0008_STM32F103ZET6\src\projects\StdPeriph\JLinkSettings.ini"", ...)  returns 0x00 (0000ms, 0520ms total)
T05BC 000:807 JLINK_ExecCommand("Device = STM32F103ZE", ...)Device "STM32F103ZE" selected (512 KB flash, 64 KB RAM).  returns 0x00 (0001ms, 0521ms total)
T05BC 000:808 JLINK_ExecCommand("DisableConnectionTimeout", ...)  returns 0x01 (0000ms, 0521ms total)
T05BC 000:808 JLINK_GetHardwareVersion()  returns 0x13880 (0000ms, 0521ms total)
T05BC 000:808 JLINK_GetDLLVersion()  returns 49000 (0000ms, 0521ms total)
T05BC 000:808 JLINK_GetFirmwareString(...) (0000ms, 0521ms total)
T05BC 000:808 JLINK_GetDLLVersion()  returns 49000 (0000ms, 0521ms total)
T05BC 000:808 JLINK_GetCompileDateTime() (0000ms, 0521ms total)
T05BC 000:808 JLINK_GetFirmwareString(...) (0000ms, 0521ms total)
T05BC 000:808 JLINK_GetHardwareVersion()  returns 0x13880 (0000ms, 0521ms total)
T05BC 000:808 JLINK_TIF_Select(JLINKARM_TIF_JTAG)  returns 0x00 (0001ms, 0522ms total)
T05BC 000:809 JLINK_SetSpeed(5000) (0000ms, 0522ms total)
T05BC 000:809 JLINK_GetIdData(...) >0x2F8 JTAG>TotalIRLen = 9, IRPrint = 0x0011 >0x30 JTAG> >0x210 JTAG> >0x40 JTAG> >0x40 JTAG> >0x40 JTAG> >0x30 JTAG> >0x40 JTAG> >0x40 JTAG> >0x40 JTAG> >0x40 JTAG> >0x40 JTAG> >0x40 JTAG> >0x40 JTAG> >0x40 JTAG> >0x2F8 JTAG>TotalIRLen = 9, IRPrint = 0x0011 >0x30 JTAG> >0x210 JTAG> >0x70 JTAG> >0x40 JTAG> >0x40 JTAG> >0x40 JTAG> >0x50 JTAG> >0x80 JTAG> >0x40 JTAG> >0x30 JTAG> >0x40 JTAG> >0x40 JTAG> >0x30 JTAG> >0x40 JTAG> >0x50 JTAG>
Found Cortex-M3 r1p1, Little endian. -- CPU_WriteMem(4 bytes @ 0xE0002000) -- CPU_ReadMem(4 bytes @ 0xE000EDF0) -- CPU_ReadMem(4 bytes @ 0xE0002000)FPUnit: 6 code (BP) slots and 2 literal slots -- CPU_ReadMem(4 bytes @ 0xE000EDFC) -- CPU_ReadMem(4 bytes @ 0xE0001000) -- CPU_WriteMem(4 bytes @ 0xE0001000) -- CPU_ReadMem(4 bytes @ 0xE00FF010)TPIU fitted. -- CPU_ReadMem(4 bytes @ 0xE00FF014)ETM fitted. -- CPU_ReadMem(4 bytes @ 0xE00FF018) ScanLen=9 NumDevices=2 aId[0]=0x3BA00477 aIrRead[0]=0 aScanLen[0]=0
 aScanRead[0]=0 (0017ms, 0539ms total)
T05BC 000:826 JLINK_JTAG_GetDeviceID(DeviceIndex = 0)  returns 0x3BA00477 (0000ms, 0539ms total)
T05BC 000:826 JLINK_JTAG_GetDeviceInfo(DeviceIndex = 0)  returns 0x00 (0000ms, 0539ms total)
T05BC 000:826 JLINK_JTAG_GetDeviceID(DeviceIndex = 1)  returns 0x6414041 (0000ms, 0539ms total)
T05BC 000:826 JLINK_JTAG_GetDeviceInfo(DeviceIndex = 1)  returns 0x00 (0000ms, 0539ms total)
T05BC 000:826 JLINK_GetDLLVersion()  returns 49000 (0000ms, 0539ms total)
T05BC 000:826 JLINK_CORE_GetFound()  returns 0x30000FF (0001ms, 0540ms total)
T05BC 000:827 JLINK_GetDebugInfo(0x100) -- Value=0xE00FF003  returns 0x00 (0000ms, 0540ms total)
T05BC 000:827 JLINK_GetDebugInfo(0x101)  returns 0xFFFFFFFF (0000ms, 0540ms total)
T05BC 000:827 JLINK_ReadMem (0xE0041FF0, 0x0010 Bytes, ...) -- CPU is running -- CPU_ReadMem(16 bytes @ 0xE0041FF0) - Data: 0D 00 00 00 90 00 00 00 05 00 00 00 B1 00 00 00  returns 0x00 (0000ms, 0540ms total)
T05BC 000:827 JLINK_GetDebugInfo(0x102)  returns 0xFFFFFFFF (0000ms, 0540ms total)
T05BC 000:827 JLINK_GetDebugInfo(0x103)  returns 0xFFFFFFFF (0000ms, 0540ms total)
T05BC 000:827 JLINK_ReadMem (0xE0040FF0, 0x0010 Bytes, ...) -- CPU is running -- CPU_ReadMem(16 bytes @ 0xE0040FF0) - Data: 0D 00 00 00 90 00 00 00 05 00 00 00 B1 00 00 00  returns 0x00 (0001ms, 0541ms total)
T05BC 000:828 JLINK_GetDebugInfo(0x104)  returns 0xFFFFFFFF (0000ms, 0541ms total)
T05BC 000:828 JLINK_GetDebugInfo(0x105)  returns 0xFFFFFFFF (0000ms, 0541ms total)
T05BC 000:828 JLINK_GetDebugInfo(0x106)  returns 0xFFFFFFFF (0000ms, 0541ms total)
T05BC 000:828 JLINK_GetDebugInfo(0x107)  returns 0xFFFFFFFF (0000ms, 0541ms total)
T05BC 000:828 JLINK_GetDebugInfo(0x10C)  returns 0xFFFFFFFF (0000ms, 0541ms total)
T05BC 000:828 JLINK_ReadMemU32(0xE000ED00, 0x0001 Items, ...) -- CPU is running -- CPU_ReadMem(4 bytes @ 0xE000ED00) - Data: 31 C2 1F 41  returns 0x01 (0000ms, 0541ms total)
T05BC 000:828 JLINK_SetResetType(JLINKARM_RESET_TYPE_NORMAL)  returns JLINKARM_RESET_TYPE_NORMAL (0000ms, 0541ms total)
T05BC 000:828 JLINK_Reset() -- CPU is running -- CPU_WriteMem(4 bytes @ 0xE000EDF0) -- CPU is running -- CPU_WriteMem(4 bytes @ 0xE000EDFC) -- CPU is running -- CPU_WriteMem(4 bytes @ 0xE000ED0C) -- CPU is running -- CPU_ReadMem(4 bytes @ 0xE000EDF0) -- CPU is running -- CPU_ReadMem(4 bytes @ 0xE000EDF0) -- CPU is running -- CPU_WriteMem(4 bytes @ 0xE000EDF0) -- CPU is running -- CPU_WriteMem(4 bytes @ 0xE000EDFC) -- CPU is running -- CPU_ReadMem(4 bytes @ 0xE000EDF0) >0x80 JTAG> >0x40 JTAG> >0x30 JTAG>
 >0x40 JTAG> >0x50 JTAG> >0x40 JTAG> -- CPU_WriteMem(4 bytes @ 0xE000EDFC) -- CPU_WriteMem(4 bytes @ 0xE0001028) -- CPU_WriteMem(4 bytes @ 0xE0001038) -- CPU_WriteMem(4 bytes @ 0xE0001048) -- CPU_WriteMem(4 bytes @ 0xE0001058) -- CPU_WriteMem(4 bytes @ 0xE0002000) -- CPU_ReadMem(4 bytes @ 0xE000EDFC) -- CPU_ReadMem(4 bytes @ 0xE0001000) (0026ms, 0567ms total)
T05BC 000:854 JLINK_ReadReg(R15 (PC))  returns 0x080001B0 (0000ms, 0567ms total)
T05BC 000:854 JLINK_ReadReg(XPSR)  returns 0x01000000 (0000ms, 0567ms total)
T05BC 000:854 JLINK_Halt()  returns 0x00 (0000ms, 0567ms total)
T05BC 000:854 JLINK_IsHalted()  returns TRUE (0000ms, 0567ms total)
T05BC 000:854 JLINK_ReadMemU32(0xE000EDF0, 0x0001 Items, ...) -- CPU_ReadMem(4 bytes @ 0xE000EDF0) - Data: 03 00 03 00  returns 0x01 (0000ms, 0567ms total)
T05BC 000:854 JLINK_WriteU32(0xE000EDF0, 0xA05F0003) -- CPU_WriteMem(4 bytes @ 0xE000EDF0)  returns 0x00 (0001ms, 0568ms total)
T05BC 000:855 JLINK_WriteU32(0xE000EDFC, 0x01000000) -- CPU_WriteMem(4 bytes @ 0xE000EDFC)  returns 0x00 (0000ms, 0568ms total)
T05BC 000:855 JLINK_GetHWStatus(...)  returns 0x00 (0000ms, 0568ms total)
T05BC 000:855 JLINK_GetNumBPUnits(Type = 0xFFFFFF00)  returns 0x06 (0000ms, 0568ms total)
T05BC 000:855 JLINK_GetNumBPUnits(Type = 0xF0)  returns 0x2000 (0000ms, 0568ms total)
T05BC 000:855 JLINK_GetNumWPUnits()  returns 0x04 (0000ms, 0568ms total)
T05BC 000:855 JLINK_GetSpeed()  returns 0x12C0 (0000ms, 0568ms total)
T05BC 000:855 JLINK_ReadMemU32(0xE000E004, 0x0001 Items, ...) -- CPU_ReadMem(4 bytes @ 0xE000E004) - Data: 01 00 00 00  returns 0x01 (0001ms, 0569ms total)
T05BC 000:856 JLINK_ReadMemU32(0xE000E004, 0x0001 Items, ...) -- CPU_ReadMem(4 bytes @ 0xE000E004) - Data: 01 00 00 00  returns 0x01 (0000ms, 0569ms total)
T05BC 000:856 JLINK_WriteMem(0xE0001000, 0x001C Bytes, ...) - Data: 01 00 00 00 00 00 00 00 00 00 00 00 00 00 00 00 ... -- CPU_WriteMem(28 bytes @ 0xE0001000)  returns 0x1C (0001ms, 0570ms total)
T05BC 000:857 JLINK_ReadMem (0xE0001000, 0x001C Bytes, ...) -- CPU_ReadMem(28 bytes @ 0xE0001000) - Data: 01 00 00 40 00 00 00 00 00 00 00 00 00 00 00 00 ...  returns 0x00 (0000ms, 0570ms total)
T05BC 000:857 JLINK_ReadReg(R15 (PC))  returns 0x080001B0 (0000ms, 0570ms total)
T05BC 000:857 JLINK_ReadReg(XPSR)  returns 0x01000000 (0000ms, 0570ms total)
T05BC 000:924 JLINK_SetResetType(JLINKARM_RESET_TYPE_NORMAL)  returns JLINKARM_RESET_TYPE_NORMAL (0000ms, 0570ms total)
T05BC 000:924 JLINK_Reset() -- CPU_WriteMem(4 bytes @ 0xE000EDF0) -- CPU_WriteMem(4 bytes @ 0xE000EDFC) -- CPU_WriteMem(4 bytes @ 0xE000ED0C) -- CPU_ReadMem(4 bytes @ 0xE000EDF0) -- CPU_ReadMem(4 bytes @ 0xE000EDF0) -- CPU_WriteMem(4 bytes @ 0xE000EDF0) -- CPU_WriteMem(4 bytes @ 0xE000EDFC) -- CPU is running -- CPU_ReadMem(4 bytes @ 0xE000EDF0) >0x80 JTAG> >0x40 JTAG> >0x30 JTAG> >0x40 JTAG> >0x50 JTAG> >0x40 JTAG> -- CPU_WriteMem(4 bytes @ 0xE000EDFC) -- CPU_WriteMem(4 bytes @ 0xE0001028)
 -- CPU_WriteMem(4 bytes @ 0xE0001038) -- CPU_WriteMem(4 bytes @ 0xE0001048) -- CPU_WriteMem(4 bytes @ 0xE0001058) -- CPU_WriteMem(4 bytes @ 0xE0002000) -- CPU_ReadMem(4 bytes @ 0xE000EDFC) -- CPU_ReadMem(4 bytes @ 0xE0001000) (0028ms, 0598ms total)
T05BC 000:952 JLINK_ReadReg(R15 (PC))  returns 0x080001B0 (0000ms, 0598ms total)
T05BC 000:952 JLINK_ReadReg(XPSR)  returns 0x01000000 (0000ms, 0598ms total)
T05BC 000:952 JLINK_ReadMemU32(0xE0001004, 0x0001 Items, ...) -- CPU_ReadMem(4 bytes @ 0xE0001004) - Data: FF 07 00 00  returns 0x01 (0001ms, 0599ms total)
T05BC 001:038 JLINK_ReadMem (0x080001B0, 0x003C Bytes, ...) -- CPU_ReadMem(128 bytes @ 0x08000180) -- Updating C cache (128 bytes @ 0x08000180) -- Read from C cache (60 bytes @ 0x080001B0) - Data: 09 48 80 47 09 48 00 47 FE E7 FE E7 FE E7 FE E7 ...  returns 0x00 (0002ms, 0601ms total)
T1124 001:741 JLINK_SetBPEx(Addr = 0x08000538, Type = 0xFFFFFFF2)  returns 0x00000001 (0000ms, 0601ms total)
T1124 001:741 JLINK_Go() -- CPU_WriteMem(4 bytes @ 0xE0002008) -- CPU_WriteMem(4 bytes @ 0xE000200C) -- CPU_WriteMem(4 bytes @ 0xE0002010) -- CPU_WriteMem(4 bytes @ 0xE0002014) -- CPU_WriteMem(4 bytes @ 0xE0002018) -- CPU_WriteMem(4 bytes @ 0xE000201C) -- CPU_WriteMem(4 bytes @ 0xE0001004) (0003ms, 0604ms total)
T1124 001:845 JLINK_IsHalted()  returns TRUE (0003ms, 0607ms total)
T1124 001:848 JLINK_Halt()  returns 0x00 (0000ms, 0604ms total)
T1124 001:848 JLINK_IsHalted()  returns TRUE (0000ms, 0604ms total)
T1124 001:848 JLINK_IsHalted()  returns TRUE (0000ms, 0604ms total)
T1124 001:848 JLINK_IsHalted()  returns TRUE (0000ms, 0604ms total)
T1124 001:848 JLINK_ReadReg(R15 (PC))  returns 0x08000538 (0000ms, 0604ms total)
T1124 001:848 JLINK_ReadReg(XPSR)  returns 0x21000000 (0000ms, 0604ms total)
T1124 001:848 JLINK_ClrBPEx(BPHandle = 0x00000001)  returns 0x00 (0000ms, 0604ms total)
T1124 001:848 JLINK_ReadMemU32(0xE000ED30, 0x0001 Items, ...) -- CPU_ReadMem(4 bytes @ 0xE000ED30) - Data: 03 00 00 00  returns 0x01 (0000ms, 0604ms total)
T1124 001:848 JLINK_ReadMemU32(0xE0001028, 0x0001 Items, ...) -- CPU_ReadMem(4 bytes @ 0xE0001028) - Data: 00 00 00 00  returns 0x01 (0001ms, 0605ms total)
T1124 001:849 JLINK_ReadMemU32(0xE0001038, 0x0001 Items, ...) -- CPU_ReadMem(4 bytes @ 0xE0001038) - Data: 00 02 00 00  returns 0x01 (0001ms, 0606ms total)
T1124 001:850 JLINK_ReadMemU32(0xE0001048, 0x0001 Items, ...) -- CPU_ReadMem(4 bytes @ 0xE0001048) - Data: 00 00 00 00  returns 0x01 (0001ms, 0607ms total)
T1124 001:851 JLINK_ReadMemU32(0xE0001058, 0x0001 Items, ...) -- CPU_ReadMem(4 bytes @ 0xE0001058) - Data: 00 00 00 00  returns 0x01 (0001ms, 0608ms total)
T1124 001:852 JLINK_ReadReg(R0)  returns 0x20000060 (0000ms, 0608ms total)
T1124 001:852 JLINK_ReadReg(R1)  returns 0x20000260 (0000ms, 0608ms total)
T1124 001:852 JLINK_ReadReg(R2)  returns 0x20000260 (0000ms, 0608ms total)
T1124 001:852 JLINK_ReadReg(R3)  returns 0x20000260 (0000ms, 0608ms total)
T1124 001:852 JLINK_ReadReg(R4)  returns 0x00000000 (0000ms, 0608ms total)
T1124 001:852 JLINK_ReadReg(R5)  returns 0x20000000 (0000ms, 0608ms total)
T1124 001:852 JLINK_ReadReg(R6)  returns 0x00000000 (0000ms, 0608ms total)
T1124 001:852 JLINK_ReadReg(R7)  returns 0x00000000 (0000ms, 0608ms total)
T1124 001:852 JLINK_ReadReg(R8)  returns 0x00000000 (0000ms, 0608ms total)
T1124 001:852 JLINK_ReadReg(R9)  returns 0x20000160 (0000ms, 0608ms total)
T1124 001:852 JLINK_ReadReg(R10)  returns 0x08000574 (0000ms, 0608ms total)
T1124 001:852 JLINK_ReadReg(R11)  returns 0x00000000 (0000ms, 0608ms total)
T1124 001:852 JLINK_ReadReg(R12)  returns 0x20000040 (0000ms, 0608ms total)
T1124 001:852 JLINK_ReadReg(R13 (SP))  returns 0x20000660 (0000ms, 0608ms total)
T1124 001:852 JLINK_ReadReg(R14)  returns 0x0800019F (0000ms, 0608ms total)
T1124 001:852 JLINK_ReadReg(R15 (PC))  returns 0x08000538 (0000ms, 0608ms total)
T1124 001:852 JLINK_ReadReg(XPSR)  returns 0x21000000 (0000ms, 0608ms total)
T1124 001:852 JLINK_ReadReg(MSP)  returns 0x20000660 (0000ms, 0608ms total)
T1124 001:852 JLINK_ReadReg(PSP)  returns 0x20001000 (0000ms, 0608ms total)
T1124 001:852 JLINK_ReadReg(CFBP)  returns 0x00000000 (0000ms, 0608ms total)
T05BC 001:854 JLINK_ReadMemU32(0xE0001004, 0x0001 Items, ...) -- CPU_ReadMem(4 bytes @ 0xE0001004) - Data: 5C 19 00 00  returns 0x01 (0001ms, 0609ms total)
T05BC 001:857 JLINK_ReadMem (0x08000538, 0x003C Bytes, ...) -- CPU_ReadMem(128 bytes @ 0x08000500) -- Updating C cache (128 bytes @ 0x08000500) -- Read from C cache (60 bytes @ 0x08000538) - Data: FF F7 30 FF 0D E0 40 21 06 48 FF F7 26 FF 06 48 ...  returns 0x00 (0003ms, 0612ms total)
T1124 011:283 JLINK_SetBPEx(Addr = 0x0800053C, Type = 0xFFFFFFF2)  returns 0x00000002 (0000ms, 0612ms total)
T1124 011:283 JLINK_SetBPEx(Addr = 0x0800053E, Type = 0xFFFFFFF2)  returns 0x00000003 (0000ms, 0612ms total)
T1124 011:283 JLINK_SetBPEx(Addr = 0x0800054C, Type = 0xFFFFFFF2)  returns 0x00000004 (0000ms, 0612ms total)
T1124 011:283 JLINK_Go() -- CPU_WriteMem(4 bytes @ 0xE0002008) -- CPU_WriteMem(4 bytes @ 0xE0002010) (0002ms, 0614ms total)
T1124 011:386 JLINK_IsHalted()  returns TRUE (0003ms, 0617ms total)
T1124 011:389 JLINK_Halt()  returns 0x00 (0000ms, 0614ms total)
T1124 011:389 JLINK_IsHalted()  returns TRUE (0000ms, 0614ms total)
T1124 011:389 JLINK_IsHalted()  returns TRUE (0000ms, 0614ms total)
T1124 011:389 JLINK_IsHalted()  returns TRUE (0000ms, 0614ms total)
T1124 011:389 JLINK_ReadReg(R15 (PC))  returns 0x0800053C (0000ms, 0614ms total)
T1124 011:389 JLINK_ReadReg(XPSR)  returns 0x01000000 (0000ms, 0614ms total)
T1124 011:389 JLINK_ClrBPEx(BPHandle = 0x00000002)  returns 0x00 (0000ms, 0614ms total)
T1124 011:389 JLINK_ClrBPEx(BPHandle = 0x00000003)  returns 0x00 (0000ms, 0614ms total)
T1124 011:389 JLINK_ClrBPEx(BPHandle = 0x00000004)  returns 0x00 (0000ms, 0614ms total)
T1124 011:389 JLINK_ReadMemU32(0xE000ED30, 0x0001 Items, ...) -- CPU_ReadMem(4 bytes @ 0xE000ED30) - Data: 03 00 00 00  returns 0x01 (0001ms, 0615ms total)
T1124 011:390 JLINK_ReadMemU32(0xE0001028, 0x0001 Items, ...) -- CPU_ReadMem(4 bytes @ 0xE0001028) - Data: 00 00 00 00  returns 0x01 (0000ms, 0615ms total)
T1124 011:390 JLINK_ReadMemU32(0xE0001038, 0x0001 Items, ...) -- CPU_ReadMem(4 bytes @ 0xE0001038) - Data: 00 02 00 00  returns 0x01 (0001ms, 0616ms total)
T1124 011:391 JLINK_ReadMemU32(0xE0001048, 0x0001 Items, ...) -- CPU_ReadMem(4 bytes @ 0xE0001048) - Data: 00 00 00 00  returns 0x01 (0001ms, 0617ms total)
T1124 011:392 JLINK_ReadMemU32(0xE0001058, 0x0001 Items, ...) -- CPU_ReadMem(4 bytes @ 0xE0001058) - Data: 00 00 00 00  returns 0x01 (0001ms, 0618ms total)
T1124 011:393 JLINK_ReadReg(R0)  returns 0x40011800 (0000ms, 0618ms total)
T1124 011:393 JLINK_ReadReg(R1)  returns 0x00000040 (0000ms, 0618ms total)
T1124 011:393 JLINK_ReadReg(R2)  returns 0x40011800 (0000ms, 0618ms total)
T1124 011:393 JLINK_ReadReg(R3)  returns 0x10030040 (0000ms, 0618ms total)
T1124 011:393 JLINK_ReadReg(R4)  returns 0x00000000 (0000ms, 0618ms total)
T1124 011:393 JLINK_ReadReg(R5)  returns 0x20000000 (0000ms, 0618ms total)
T1124 011:393 JLINK_ReadReg(R6)  returns 0x00000000 (0000ms, 0618ms total)
T1124 011:393 JLINK_ReadReg(R7)  returns 0x00000000 (0000ms, 0618ms total)
T1124 011:393 JLINK_ReadReg(R8)  returns 0x00000000 (0000ms, 0618ms total)
T1124 011:393 JLINK_ReadReg(R9)  returns 0x20000160 (0000ms, 0618ms total)
T1124 011:393 JLINK_ReadReg(R10)  returns 0x08000574 (0000ms, 0618ms total)
T1124 011:393 JLINK_ReadReg(R11)  returns 0x00000000 (0000ms, 0618ms total)
T1124 011:393 JLINK_ReadReg(R12)  returns 0x00000040 (0000ms, 0618ms total)
T1124 011:393 JLINK_ReadReg(R13 (SP))  returns 0x20000660 (0000ms, 0618ms total)
T1124 011:393 JLINK_ReadReg(R14)  returns 0x080003C9 (0000ms, 0618ms total)
T1124 011:393 JLINK_ReadReg(R15 (PC))  returns 0x0800053C (0000ms, 0618ms total)
T1124 011:393 JLINK_ReadReg(XPSR)  returns 0x01000000 (0000ms, 0618ms total)
T1124 011:393 JLINK_ReadReg(MSP)  returns 0x20000660 (0000ms, 0618ms total)
T1124 011:393 JLINK_ReadReg(PSP)  returns 0x20001000 (0000ms, 0618ms total)
T1124 011:393 JLINK_ReadReg(CFBP)  returns 0x00000000 (0000ms, 0618ms total)
T05BC 011:393 JLINK_ReadMemU32(0xE0001004, 0x0001 Items, ...) -- CPU_ReadMem(4 bytes @ 0xE0001004) - Data: A8 1A 00 00  returns 0x01 (0001ms, 0619ms total)
T05BC 011:396 JLINK_ReadMem (0x0800053C, 0x003C Bytes, ...) -- CPU_ReadMem(128 bytes @ 0x08000500) -- Updating C cache (128 bytes @ 0x08000500) -- Read from C cache (60 bytes @ 0x0800053C) - Data: 0D E0 40 21 06 48 FF F7 26 FF 06 48 FF F7 8F FE ...  returns 0x00 (0002ms, 0621ms total)
T1124 012:242 JLINK_Step() -- Read from C cache (2 bytes @ 0x0800053C) -- Simulated  returns 0x00 (0001ms, 0622ms total)
T1124 012:243 JLINK_ReadReg(R15 (PC))  returns 0x0800055A (0000ms, 0622ms total)
T1124 012:243 JLINK_ReadReg(XPSR)  returns 0x01000000 (0000ms, 0622ms total)
T1124 012:243 JLINK_ReadReg(R0)  returns 0x40011800 (0000ms, 0622ms total)
T1124 012:243 JLINK_ReadReg(R1)  returns 0x00000040 (0000ms, 0622ms total)
T1124 012:243 JLINK_ReadReg(R2)  returns 0x40011800 (0000ms, 0622ms total)
T1124 012:243 JLINK_ReadReg(R3)  returns 0x10030040 (0000ms, 0622ms total)
T1124 012:243 JLINK_ReadReg(R4)  returns 0x00000000 (0000ms, 0622ms total)
T1124 012:243 JLINK_ReadReg(R5)  returns 0x20000000 (0000ms, 0622ms total)
T1124 012:243 JLINK_ReadReg(R6)  returns 0x00000000 (0000ms, 0622ms total)
T1124 012:243 JLINK_ReadReg(R7)  returns 0x00000000 (0000ms, 0622ms total)
T1124 012:243 JLINK_ReadReg(R8)  returns 0x00000000 (0000ms, 0622ms total)
T1124 012:243 JLINK_ReadReg(R9)  returns 0x20000160 (0000ms, 0622ms total)
T1124 012:243 JLINK_ReadReg(R10)  returns 0x08000574 (0000ms, 0622ms total)
T1124 012:243 JLINK_ReadReg(R11)  returns 0x00000000 (0000ms, 0622ms total)
T1124 012:243 JLINK_ReadReg(R12)  returns 0x00000040 (0000ms, 0622ms total)
T1124 012:243 JLINK_ReadReg(R13 (SP))  returns 0x20000660 (0000ms, 0622ms total)
T1124 012:243 JLINK_ReadReg(R14)  returns 0x080003C9 (0000ms, 0622ms total)
T1124 012:243 JLINK_ReadReg(R15 (PC))  returns 0x0800055A (0000ms, 0622ms total)
T1124 012:243 JLINK_ReadReg(XPSR)  returns 0x01000000 (0000ms, 0622ms total)
T1124 012:243 JLINK_ReadReg(MSP)  returns 0x20000660 (0000ms, 0622ms total)
T1124 012:243 JLINK_ReadReg(PSP)  returns 0x20001000 (0000ms, 0622ms total)
T1124 012:243 JLINK_ReadReg(CFBP)  returns 0x00000000 (0000ms, 0622ms total)
T05BC 012:244 JLINK_ReadMemU32(0xE0001004, 0x0001 Items, ...) - Data: A8 1A 00 00  returns 0x01 (0000ms, 0622ms total)
T05BC 012:247 JLINK_ReadMem (0x0800055A, 0x0002 Bytes, ...) -- Read from C cache (2 bytes @ 0x0800055A) - Data: F0 E7  returns 0x00 (0000ms, 0622ms total)
T05BC 012:247 JLINK_ReadMem (0x0800055C, 0x003C Bytes, ...) -- CPU_ReadMem(64 bytes @ 0x08000580) -- Updating C cache (64 bytes @ 0x08000580) -- Read from C cache (60 bytes @ 0x0800055C) - Data: 00 18 01 40 FF FF 2F 00 74 05 00 08 00 00 00 20 ...  returns 0x00 (0001ms, 0623ms total)
T1124 013:106 JLINK_Step() -- Read from C cache (2 bytes @ 0x0800055A) -- Simulated  returns 0x00 (0001ms, 0624ms total)
T1124 013:107 JLINK_ReadReg(R15 (PC))  returns 0x0800053E (0000ms, 0624ms total)
T1124 013:107 JLINK_ReadReg(XPSR)  returns 0x01000000 (0000ms, 0624ms total)
T1124 013:107 JLINK_ReadReg(R0)  returns 0x40011800 (0000ms, 0624ms total)
T1124 013:107 JLINK_ReadReg(R1)  returns 0x00000040 (0000ms, 0624ms total)
T1124 013:107 JLINK_ReadReg(R2)  returns 0x40011800 (0000ms, 0624ms total)
T1124 013:107 JLINK_ReadReg(R3)  returns 0x10030040 (0000ms, 0624ms total)
T1124 013:107 JLINK_ReadReg(R4)  returns 0x00000000 (0000ms, 0624ms total)
T1124 013:107 JLINK_ReadReg(R5)  returns 0x20000000 (0000ms, 0624ms total)
T1124 013:107 JLINK_ReadReg(R6)  returns 0x00000000 (0000ms, 0624ms total)
T1124 013:107 JLINK_ReadReg(R7)  returns 0x00000000 (0000ms, 0624ms total)
T1124 013:107 JLINK_ReadReg(R8)  returns 0x00000000 (0000ms, 0624ms total)
T1124 013:107 JLINK_ReadReg(R9)  returns 0x20000160 (0000ms, 0624ms total)
T1124 013:107 JLINK_ReadReg(R10)  returns 0x08000574 (0000ms, 0624ms total)
T1124 013:107 JLINK_ReadReg(R11)  returns 0x00000000 (0000ms, 0624ms total)
T1124 013:107 JLINK_ReadReg(R12)  returns 0x00000040 (0000ms, 0624ms total)
T1124 013:107 JLINK_ReadReg(R13 (SP))  returns 0x20000660 (0000ms, 0624ms total)
T1124 013:107 JLINK_ReadReg(R14)  returns 0x080003C9 (0000ms, 0624ms total)
T1124 013:107 JLINK_ReadReg(R15 (PC))  returns 0x0800053E (0000ms, 0624ms total)
T1124 013:107 JLINK_ReadReg(XPSR)  returns 0x01000000 (0000ms, 0624ms total)
T1124 013:107 JLINK_ReadReg(MSP)  returns 0x20000660 (0000ms, 0624ms total)
T1124 013:107 JLINK_ReadReg(PSP)  returns 0x20001000 (0000ms, 0624ms total)
T1124 013:107 JLINK_ReadReg(CFBP)  returns 0x00000000 (0000ms, 0624ms total)
T05BC 013:108 JLINK_ReadMemU32(0xE0001004, 0x0001 Items, ...) - Data: A8 1A 00 00  returns 0x01 (0000ms, 0624ms total)
T05BC 013:110 JLINK_ReadMem (0x0800053E, 0x0002 Bytes, ...) -- Read from C cache (2 bytes @ 0x0800053E) - Data: 40 21  returns 0x00 (0000ms, 0624ms total)
T05BC 013:110 JLINK_ReadMem (0x08000540, 0x003C Bytes, ...) -- Read from C cache (60 bytes @ 0x08000540) - Data: 06 48 FF F7 26 FF 06 48 FF F7 8F FE 40 21 03 48 ...  returns 0x00 (0000ms, 0624ms total)
T1124 014:171 JLINK_Step() -- Read from C cache (2 bytes @ 0x0800053E) -- Simulated  returns 0x00 (0001ms, 0625ms total)
T1124 014:172 JLINK_ReadReg(R15 (PC))  returns 0x08000540 (0000ms, 0625ms total)
T1124 014:172 JLINK_ReadReg(XPSR)  returns 0x01000000 (0000ms, 0625ms total)
T1124 014:172 JLINK_Step() -- Read from C cache (2 bytes @ 0x08000540) -- Read from C cache (4 bytes @ 0x0800055C) -- Simulated  returns 0x00 (0000ms, 0625ms total)
T1124 014:172 JLINK_ReadReg(R15 (PC))  returns 0x08000542 (0000ms, 0625ms total)
T1124 014:172 JLINK_ReadReg(XPSR)  returns 0x01000000 (0000ms, 0625ms total)
T1124 014:172 JLINK_SetBPEx(Addr = 0x08000546, Type = 0xFFFFFFF2)  returns 0x00000005 (0000ms, 0625ms total)
T1124 014:172 JLINK_SetBPEx(Addr = 0x0800053E, Type = 0xFFFFFFF2)  returns 0x00000006 (0000ms, 0625ms total)
T1124 014:172 JLINK_SetBPEx(Addr = 0x0800054C, Type = 0xFFFFFFF2)  returns 0x00000007 (0000ms, 0625ms total)
T1124 014:172 JLINK_Go() -- CPU_WriteMem(4 bytes @ 0xE0002008) -- CPU_WriteMem(4 bytes @ 0xE000200C) -- CPU_WriteMem(4 bytes @ 0xE0001004) (0002ms, 0627ms total)
T1124 014:274 JLINK_IsHalted()  returns TRUE (0004ms, 0631ms total)
T1124 014:278 JLINK_Halt()  returns 0x00 (0000ms, 0627ms total)
T1124 014:278 JLINK_IsHalted()  returns TRUE (0000ms, 0627ms total)
T1124 014:278 JLINK_IsHalted()  returns TRUE (0000ms, 0627ms total)
T1124 014:278 JLINK_IsHalted()  returns TRUE (0000ms, 0627ms total)
T1124 014:278 JLINK_ReadReg(R15 (PC))  returns 0x08000546 (0000ms, 0627ms total)
T1124 014:278 JLINK_ReadReg(XPSR)  returns 0x01000000 (0000ms, 0627ms total)
T1124 014:278 JLINK_ClrBPEx(BPHandle = 0x00000005)  returns 0x00 (0000ms, 0627ms total)
T1124 014:278 JLINK_ClrBPEx(BPHandle = 0x00000006)  returns 0x00 (0000ms, 0627ms total)
T1124 014:278 JLINK_ClrBPEx(BPHandle = 0x00000007)  returns 0x00 (0000ms, 0627ms total)
T1124 014:278 JLINK_ReadMemU32(0xE000ED30, 0x0001 Items, ...) -- CPU_ReadMem(4 bytes @ 0xE000ED30) - Data: 03 00 00 00  returns 0x01 (0000ms, 0627ms total)
T1124 014:278 JLINK_ReadMemU32(0xE0001028, 0x0001 Items, ...) -- CPU_ReadMem(4 bytes @ 0xE0001028) - Data: 00 00 00 00  returns 0x01 (0000ms, 0627ms total)
T1124 014:278 JLINK_ReadMemU32(0xE0001038, 0x0001 Items, ...) -- CPU_ReadMem(4 bytes @ 0xE0001038) - Data: 00 02 00 00  returns 0x01 (0002ms, 0629ms total)
T1124 014:280 JLINK_ReadMemU32(0xE0001048, 0x0001 Items, ...) -- CPU_ReadMem(4 bytes @ 0xE0001048) - Data: 00 00 00 00  returns 0x01 (0001ms, 0630ms total)
T1124 014:281 JLINK_ReadMemU32(0xE0001058, 0x0001 Items, ...) -- CPU_ReadMem(4 bytes @ 0xE0001058) - Data: 00 00 00 00  returns 0x01 (0001ms, 0631ms total)
T1124 014:282 JLINK_ReadReg(R0)  returns 0x40011800 (0000ms, 0631ms total)
T1124 014:282 JLINK_ReadReg(R1)  returns 0x00000040 (0000ms, 0631ms total)
T1124 014:282 JLINK_ReadReg(R2)  returns 0x40011800 (0000ms, 0631ms total)
T1124 014:282 JLINK_ReadReg(R3)  returns 0x10030040 (0000ms, 0631ms total)
T1124 014:282 JLINK_ReadReg(R4)  returns 0x00000000 (0000ms, 0631ms total)
T1124 014:282 JLINK_ReadReg(R5)  returns 0x20000000 (0000ms, 0631ms total)
T1124 014:282 JLINK_ReadReg(R6)  returns 0x00000000 (0000ms, 0631ms total)
T1124 014:282 JLINK_ReadReg(R7)  returns 0x00000000 (0000ms, 0631ms total)
T1124 014:282 JLINK_ReadReg(R8)  returns 0x00000000 (0000ms, 0631ms total)
T1124 014:282 JLINK_ReadReg(R9)  returns 0x20000160 (0000ms, 0631ms total)
T1124 014:282 JLINK_ReadReg(R10)  returns 0x08000574 (0000ms, 0631ms total)
T1124 014:282 JLINK_ReadReg(R11)  returns 0x00000000 (0000ms, 0631ms total)
T1124 014:282 JLINK_ReadReg(R12)  returns 0x00000040 (0000ms, 0631ms total)
T1124 014:282 JLINK_ReadReg(R13 (SP))  returns 0x20000660 (0000ms, 0631ms total)
T1124 014:282 JLINK_ReadReg(R14)  returns 0x08000547 (0000ms, 0631ms total)
T1124 014:282 JLINK_ReadReg(R15 (PC))  returns 0x08000546 (0000ms, 0631ms total)
T1124 014:282 JLINK_ReadReg(XPSR)  returns 0x01000000 (0000ms, 0631ms total)
T1124 014:282 JLINK_ReadReg(MSP)  returns 0x20000660 (0000ms, 0631ms total)
T1124 014:282 JLINK_ReadReg(PSP)  returns 0x20001000 (0000ms, 0631ms total)
T1124 014:282 JLINK_ReadReg(CFBP)  returns 0x00000000 (0000ms, 0631ms total)
T05BC 014:282 JLINK_ReadMemU32(0xE0001004, 0x0001 Items, ...) -- CPU_ReadMem(4 bytes @ 0xE0001004) - Data: B7 1A 00 00  returns 0x01 (0001ms, 0632ms total)
T05BC 014:285 JLINK_ReadMem (0x08000546, 0x0002 Bytes, ...) -- CPU_ReadMem(64 bytes @ 0x08000540) -- Updating C cache (64 bytes @ 0x08000540) -- Read from C cache (2 bytes @ 0x08000546) - Data: 06 48  returns 0x00 (0001ms, 0633ms total)
T05BC 014:286 JLINK_ReadMem (0x08000548, 0x003C Bytes, ...) -- CPU_ReadMem(64 bytes @ 0x08000580) -- Updating C cache (64 bytes @ 0x08000580) -- Read from C cache (60 bytes @ 0x08000548) - Data: FF F7 8F FE 40 21 03 48 FF F7 21 FF 02 48 FF F7 ...  returns 0x00 (0001ms, 0634ms total)
T1124 015:570 JLINK_Step() -- Read from C cache (2 bytes @ 0x08000546) -- Read from C cache (4 bytes @ 0x08000560) -- Simulated  returns 0x00 (0001ms, 0635ms total)
T1124 015:571 JLINK_ReadReg(R15 (PC))  returns 0x08000548 (0000ms, 0635ms total)
T1124 015:571 JLINK_ReadReg(XPSR)  returns 0x01000000 (0000ms, 0635ms total)
T1124 015:571 JLINK_SetBPEx(Addr = 0x0800053E, Type = 0xFFFFFFF2)  returns 0x00000008 (0000ms, 0635ms total)
T1124 015:571 JLINK_SetBPEx(Addr = 0x0800054C, Type = 0xFFFFFFF2)  returns 0x00000009 (0000ms, 0635ms total)
T1124 015:571 JLINK_Go() -- CPU_WriteMem(4 bytes @ 0xE0002008) -- CPU_WriteMem(4 bytes @ 0xE000200C) -- CPU_WriteMem(4 bytes @ 0xE0002010) -- CPU_WriteMem(4 bytes @ 0xE0001004) (0003ms, 0638ms total)
T1124 015:674 JLINK_IsHalted()  returns FALSE (0001ms, 0639ms total)
T1124 015:776 JLINK_IsHalted()  returns FALSE (0001ms, 0639ms total)
T1124 015:877 JLINK_IsHalted()  returns FALSE (0001ms, 0639ms total)
T1124 015:978 JLINK_IsHalted()  returns FALSE (0001ms, 0639ms total)
T1124 016:079 JLINK_ReadMemU32(0xE0001004, 0x0001 Items, ...) -- CPU is running -- CPU_ReadMem(4 bytes @ 0xE0001004) - Data: 50 4A 2C 02  returns 0x01 (0001ms, 0639ms total)
T1124 016:080 JLINK_IsHalted()  returns FALSE (0001ms, 0640ms total)
T1124 016:182 JLINK_IsHalted()  returns TRUE (0003ms, 0642ms total)
T1124 016:185 JLINK_Halt()  returns 0x00 (0000ms, 0639ms total)
T1124 016:185 JLINK_IsHalted()  returns TRUE (0000ms, 0639ms total)
T1124 016:185 JLINK_IsHalted()  returns TRUE (0000ms, 0639ms total)
T1124 016:185 JLINK_IsHalted()  returns TRUE (0000ms, 0639ms total)
T1124 016:185 JLINK_ReadReg(R15 (PC))  returns 0x0800054C (0000ms, 0639ms total)
T1124 016:185 JLINK_ReadReg(XPSR)  returns 0x61000000 (0000ms, 0639ms total)
T1124 016:185 JLINK_ClrBPEx(BPHandle = 0x00000008)  returns 0x00 (0000ms, 0639ms total)
T1124 016:185 JLINK_ClrBPEx(BPHandle = 0x00000009)  returns 0x00 (0000ms, 0639ms total)
T1124 016:185 JLINK_ReadMemU32(0xE000ED30, 0x0001 Items, ...) -- CPU_ReadMem(4 bytes @ 0xE000ED30) - Data: 03 00 00 00  returns 0x01 (0001ms, 0640ms total)
T1124 016:186 JLINK_ReadMemU32(0xE0001028, 0x0001 Items, ...) -- CPU_ReadMem(4 bytes @ 0xE0001028) - Data: 00 00 00 00  returns 0x01 (0000ms, 0640ms total)
T1124 016:186 JLINK_ReadMemU32(0xE0001038, 0x0001 Items, ...) -- CPU_ReadMem(4 bytes @ 0xE0001038) - Data: 00 02 00 00  returns 0x01 (0001ms, 0641ms total)
T1124 016:187 JLINK_ReadMemU32(0xE0001048, 0x0001 Items, ...) -- CPU_ReadMem(4 bytes @ 0xE0001048) - Data: 00 00 00 00  returns 0x01 (0001ms, 0642ms total)
T1124 016:188 JLINK_ReadMemU32(0xE0001058, 0x0001 Items, ...) -- CPU_ReadMem(4 bytes @ 0xE0001058) - Data: 00 00 00 00  returns 0x01 (0001ms, 0643ms total)
T1124 016:189 JLINK_ReadReg(R0)  returns 0x00000000 (0000ms, 0643ms total)
T1124 016:189 JLINK_ReadReg(R1)  returns 0x00000040 (0000ms, 0643ms total)
T1124 016:189 JLINK_ReadReg(R2)  returns 0x40011800 (0000ms, 0643ms total)
T1124 016:189 JLINK_ReadReg(R3)  returns 0x00000000 (0000ms, 0643ms total)
T1124 016:189 JLINK_ReadReg(R4)  returns 0x00000000 (0000ms, 0643ms total)
T1124 016:189 JLINK_ReadReg(R5)  returns 0x20000000 (0000ms, 0643ms total)
T1124 016:189 JLINK_ReadReg(R6)  returns 0x00000000 (0000ms, 0643ms total)
T1124 016:189 JLINK_ReadReg(R7)  returns 0x00000000 (0000ms, 0643ms total)
T1124 016:189 JLINK_ReadReg(R8)  returns 0x00000000 (0000ms, 0643ms total)
T1124 016:189 JLINK_ReadReg(R9)  returns 0x20000160 (0000ms, 0643ms total)
T1124 016:189 JLINK_ReadReg(R10)  returns 0x08000574 (0000ms, 0643ms total)
T1124 016:189 JLINK_ReadReg(R11)  returns 0x00000000 (0000ms, 0643ms total)
T1124 016:189 JLINK_ReadReg(R12)  returns 0x00000040 (0000ms, 0643ms total)
T1124 016:189 JLINK_ReadReg(R13 (SP))  returns 0x20000660 (0000ms, 0643ms total)
T1124 016:189 JLINK_ReadReg(R14)  returns 0x0800054D (0000ms, 0643ms total)
T1124 016:189 JLINK_ReadReg(R15 (PC))  returns 0x0800054C (0000ms, 0643ms total)
T1124 016:189 JLINK_ReadReg(XPSR)  returns 0x61000000 (0000ms, 0643ms total)
T1124 016:189 JLINK_ReadReg(MSP)  returns 0x20000660 (0000ms, 0643ms total)
T1124 016:189 JLINK_ReadReg(PSP)  returns 0x20001000 (0000ms, 0643ms total)
T1124 016:189 JLINK_ReadReg(CFBP)  returns 0x00000000 (0000ms, 0643ms total)
T05BC 016:189 JLINK_ReadMemU32(0xE0001004, 0x0001 Items, ...) -- CPU_ReadMem(4 bytes @ 0xE0001004) - Data: C2 1A 70 02  returns 0x01 (0001ms, 0644ms total)
T05BC 016:192 JLINK_ReadMem (0x0800054C, 0x003C Bytes, ...) -- CPU_ReadMem(128 bytes @ 0x08000540) -- Updating C cache (128 bytes @ 0x08000540) -- Read from C cache (60 bytes @ 0x0800054C) - Data: 40 21 03 48 FF F7 21 FF 02 48 FF F7 88 FE F0 E7 ...  returns 0x00 (0002ms, 0646ms total)
T1124 016:634 JLINK_Step() -- Read from C cache (2 bytes @ 0x0800054C) -- Simulated  returns 0x00 (0001ms, 0647ms total)
T1124 016:635 JLINK_ReadReg(R15 (PC))  returns 0x0800054E (0000ms, 0647ms total)
T1124 016:635 JLINK_ReadReg(XPSR)  returns 0x21000000 (0000ms, 0647ms total)
T1124 016:635 JLINK_Step() -- Read from C cache (2 bytes @ 0x0800054E) -- Read from C cache (4 bytes @ 0x0800055C) -- Simulated  returns 0x00 (0000ms, 0647ms total)
T1124 016:635 JLINK_ReadReg(R15 (PC))  returns 0x08000550 (0000ms, 0647ms total)
T1124 016:635 JLINK_ReadReg(XPSR)  returns 0x21000000 (0000ms, 0647ms total)
T1124 016:635 JLINK_SetBPEx(Addr = 0x08000554, Type = 0xFFFFFFF2)  returns 0x0000000A (0000ms, 0647ms total)
T1124 016:635 JLINK_SetBPEx(Addr = 0x0800053E, Type = 0xFFFFFFF2)  returns 0x0000000B (0000ms, 0647ms total)
T1124 016:635 JLINK_SetBPEx(Addr = 0x0800054C, Type = 0xFFFFFFF2)  returns 0x0000000C (0000ms, 0647ms total)
T1124 016:635 JLINK_Go() -- CPU_WriteMem(4 bytes @ 0xE0002008) -- CPU_WriteMem(4 bytes @ 0xE000200C) -- CPU_WriteMem(4 bytes @ 0xE0002010) -- CPU_WriteMem(4 bytes @ 0xE0001004) (0002ms, 0649ms total)
T1124 016:738 JLINK_IsHalted()  returns TRUE (0003ms, 0652ms total)
T1124 016:741 JLINK_Halt()  returns 0x00 (0000ms, 0649ms total)
T1124 016:741 JLINK_IsHalted()  returns TRUE (0000ms, 0649ms total)
T1124 016:741 JLINK_IsHalted()  returns TRUE (0000ms, 0649ms total)
T1124 016:741 JLINK_IsHalted()  returns TRUE (0000ms, 0649ms total)
T1124 016:741 JLINK_ReadReg(R15 (PC))  returns 0x08000554 (0000ms, 0649ms total)
T1124 016:741 JLINK_ReadReg(XPSR)  returns 0x21000000 (0001ms, 0650ms total)
T1124 016:742 JLINK_ClrBPEx(BPHandle = 0x0000000A)  returns 0x00 (0000ms, 0650ms total)
T1124 016:742 JLINK_ClrBPEx(BPHandle = 0x0000000B)  returns 0x00 (0000ms, 0650ms total)
T1124 016:742 JLINK_ClrBPEx(BPHandle = 0x0000000C)  returns 0x00 (0000ms, 0650ms total)
T1124 016:742 JLINK_ReadMemU32(0xE000ED30, 0x0001 Items, ...) -- CPU_ReadMem(4 bytes @ 0xE000ED30) - Data: 03 00 00 00  returns 0x01 (0000ms, 0650ms total)
T1124 016:742 JLINK_ReadMemU32(0xE0001028, 0x0001 Items, ...) -- CPU_ReadMem(4 bytes @ 0xE0001028) - Data: 00 00 00 00  returns 0x01 (0001ms, 0651ms total)
T1124 016:743 JLINK_ReadMemU32(0xE0001038, 0x0001 Items, ...) -- CPU_ReadMem(4 bytes @ 0xE0001038) - Data: 00 02 00 00  returns 0x01 (0001ms, 0652ms total)
T1124 016:744 JLINK_ReadMemU32(0xE0001048, 0x0001 Items, ...) -- CPU_ReadMem(4 bytes @ 0xE0001048) - Data: 00 00 00 00  returns 0x01 (0001ms, 0653ms total)
T1124 016:745 JLINK_ReadMemU32(0xE0001058, 0x0001 Items, ...) -- CPU_ReadMem(4 bytes @ 0xE0001058) - Data: 00 00 00 00  returns 0x01 (0001ms, 0654ms total)
T1124 016:746 JLINK_ReadReg(R0)  returns 0x40011800 (0000ms, 0654ms total)
T1124 016:746 JLINK_ReadReg(R1)  returns 0x00000040 (0000ms, 0654ms total)
T1124 016:746 JLINK_ReadReg(R2)  returns 0x40011800 (0000ms, 0654ms total)
T1124 016:746 JLINK_ReadReg(R3)  returns 0x00000000 (0000ms, 0654ms total)
T1124 016:746 JLINK_ReadReg(R4)  returns 0x00000000 (0000ms, 0654ms total)
T1124 016:746 JLINK_ReadReg(R5)  returns 0x20000000 (0000ms, 0654ms total)
T1124 016:746 JLINK_ReadReg(R6)  returns 0x00000000 (0000ms, 0654ms total)
T1124 016:746 JLINK_ReadReg(R7)  returns 0x00000000 (0000ms, 0654ms total)
T1124 016:746 JLINK_ReadReg(R8)  returns 0x00000000 (0000ms, 0654ms total)
T1124 016:746 JLINK_ReadReg(R9)  returns 0x20000160 (0000ms, 0654ms total)
T1124 016:746 JLINK_ReadReg(R10)  returns 0x08000574 (0000ms, 0654ms total)
T1124 016:746 JLINK_ReadReg(R11)  returns 0x00000000 (0000ms, 0654ms total)
T1124 016:746 JLINK_ReadReg(R12)  returns 0x00000040 (0000ms, 0654ms total)
T1124 016:746 JLINK_ReadReg(R13 (SP))  returns 0x20000660 (0000ms, 0654ms total)
T1124 016:746 JLINK_ReadReg(R14)  returns 0x08000555 (0000ms, 0654ms total)
T1124 016:746 JLINK_ReadReg(R15 (PC))  returns 0x08000554 (0000ms, 0654ms total)
T1124 016:746 JLINK_ReadReg(XPSR)  returns 0x21000000 (0000ms, 0654ms total)
T1124 016:746 JLINK_ReadReg(MSP)  returns 0x20000660 (0000ms, 0654ms total)
T1124 016:746 JLINK_ReadReg(PSP)  returns 0x20001000 (0000ms, 0654ms total)
T1124 016:746 JLINK_ReadReg(CFBP)  returns 0x00000000 (0000ms, 0654ms total)
T05BC 016:746 JLINK_ReadMemU32(0xE0001004, 0x0001 Items, ...) -- CPU_ReadMem(4 bytes @ 0xE0001004) - Data: D0 1A 70 02  returns 0x01 (0001ms, 0655ms total)
T05BC 016:750 JLINK_ReadMem (0x08000554, 0x003C Bytes, ...) -- CPU_ReadMem(128 bytes @ 0x08000540) -- Updating C cache (128 bytes @ 0x08000540) -- Read from C cache (60 bytes @ 0x08000554) - Data: 02 48 FF F7 88 FE F0 E7 00 18 01 40 FF FF 2F 00 ...  returns 0x00 (0002ms, 0657ms total)
T1124 017:130 JLINK_Step() -- Read from C cache (2 bytes @ 0x08000554) -- Read from C cache (4 bytes @ 0x08000560) -- Simulated  returns 0x00 (0000ms, 0657ms total)
T1124 017:130 JLINK_ReadReg(R15 (PC))  returns 0x08000556 (0000ms, 0657ms total)
T1124 017:130 JLINK_ReadReg(XPSR)  returns 0x21000000 (0000ms, 0657ms total)
T1124 017:130 JLINK_SetBPEx(Addr = 0x0800055A, Type = 0xFFFFFFF2)  returns 0x0000000D (0000ms, 0657ms total)
T1124 017:130 JLINK_SetBPEx(Addr = 0x0800053E, Type = 0xFFFFFFF2)  returns 0x0000000E (0000ms, 0657ms total)
T1124 017:130 JLINK_SetBPEx(Addr = 0x0800054C, Type = 0xFFFFFFF2)  returns 0x0000000F (0000ms, 0657ms total)
T1124 017:130 JLINK_Go() -- CPU_WriteMem(4 bytes @ 0xE0002008) -- CPU_WriteMem(4 bytes @ 0xE0001004) (0002ms, 0659ms total)
T1124 017:233 JLINK_IsHalted()  returns FALSE (0001ms, 0660ms total)
T1124 017:334 JLINK_IsHalted()  returns FALSE (0001ms, 0660ms total)
T1124 017:435 JLINK_IsHalted()  returns FALSE (0000ms, 0659ms total)
T1124 017:535 JLINK_IsHalted()  returns FALSE (0000ms, 0659ms total)
T1124 017:636 JLINK_IsHalted()  returns FALSE (0001ms, 0660ms total)
T1124 017:738 JLINK_ReadMemU32(0xE0001004, 0x0001 Items, ...) -- CPU is running -- CPU_ReadMem(4 bytes @ 0xE0001004) - Data: DB 1A E0 04  returns 0x01 (0000ms, 0659ms total)
T1124 017:738 JLINK_IsHalted()  returns TRUE (0004ms, 0663ms total)
T1124 017:742 JLINK_Halt()  returns 0x00 (0000ms, 0659ms total)
T1124 017:742 JLINK_IsHalted()  returns TRUE (0000ms, 0659ms total)
T1124 017:742 JLINK_IsHalted()  returns TRUE (0000ms, 0659ms total)
T1124 017:742 JLINK_IsHalted()  returns TRUE (0000ms, 0659ms total)
T1124 017:742 JLINK_ReadReg(R15 (PC))  returns 0x0800055A (0000ms, 0659ms total)
T1124 017:742 JLINK_ReadReg(XPSR)  returns 0x61000000 (0000ms, 0659ms total)
T1124 017:742 JLINK_ClrBPEx(BPHandle = 0x0000000D)  returns 0x00 (0000ms, 0659ms total)
T1124 017:742 JLINK_ClrBPEx(BPHandle = 0x0000000E)  returns 0x00 (0000ms, 0659ms total)
T1124 017:742 JLINK_ClrBPEx(BPHandle = 0x0000000F)  returns 0x00 (0000ms, 0659ms total)
T1124 017:742 JLINK_ReadMemU32(0xE000ED30, 0x0001 Items, ...) -- CPU_ReadMem(4 bytes @ 0xE000ED30) - Data: 03 00 00 00  returns 0x01 (0000ms, 0659ms total)
T1124 017:742 JLINK_ReadMemU32(0xE0001028, 0x0001 Items, ...) -- CPU_ReadMem(4 bytes @ 0xE0001028) - Data: 00 00 00 00  returns 0x01 (0001ms, 0660ms total)
T1124 017:743 JLINK_ReadMemU32(0xE0001038, 0x0001 Items, ...) -- CPU_ReadMem(4 bytes @ 0xE0001038) - Data: 00 02 00 00  returns 0x01 (0001ms, 0661ms total)
T1124 017:744 JLINK_ReadMemU32(0xE0001048, 0x0001 Items, ...) -- CPU_ReadMem(4 bytes @ 0xE0001048) - Data: 00 00 00 00  returns 0x01 (0000ms, 0661ms total)
T1124 017:744 JLINK_ReadMemU32(0xE0001058, 0x0001 Items, ...) -- CPU_ReadMem(4 bytes @ 0xE0001058) - Data: 00 00 00 00  returns 0x01 (0001ms, 0662ms total)
T1124 017:745 JLINK_ReadReg(R0)  returns 0x00000000 (0000ms, 0662ms total)
T1124 017:745 JLINK_ReadReg(R1)  returns 0x00000040 (0000ms, 0662ms total)
T1124 017:745 JLINK_ReadReg(R2)  returns 0x40011800 (0000ms, 0662ms total)
T1124 017:745 JLINK_ReadReg(R3)  returns 0x00000000 (0000ms, 0662ms total)
T1124 017:745 JLINK_ReadReg(R4)  returns 0x00000000 (0000ms, 0662ms total)
T1124 017:745 JLINK_ReadReg(R5)  returns 0x20000000 (0000ms, 0662ms total)
T1124 017:745 JLINK_ReadReg(R6)  returns 0x00000000 (0000ms, 0662ms total)
T1124 017:745 JLINK_ReadReg(R7)  returns 0x00000000 (0000ms, 0662ms total)
T1124 017:745 JLINK_ReadReg(R8)  returns 0x00000000 (0000ms, 0662ms total)
T1124 017:745 JLINK_ReadReg(R9)  returns 0x20000160 (0000ms, 0662ms total)
T1124 017:745 JLINK_ReadReg(R10)  returns 0x08000574 (0000ms, 0662ms total)
T1124 017:745 JLINK_ReadReg(R11)  returns 0x00000000 (0000ms, 0662ms total)
T1124 017:745 JLINK_ReadReg(R12)  returns 0x00000040 (0000ms, 0662ms total)
T1124 017:745 JLINK_ReadReg(R13 (SP))  returns 0x20000660 (0000ms, 0662ms total)
T1124 017:745 JLINK_ReadReg(R14)  returns 0x0800055B (0000ms, 0662ms total)
T1124 017:745 JLINK_ReadReg(R15 (PC))  returns 0x0800055A (0000ms, 0662ms total)
T1124 017:745 JLINK_ReadReg(XPSR)  returns 0x61000000 (0000ms, 0662ms total)
T1124 017:745 JLINK_ReadReg(MSP)  returns 0x20000660 (0000ms, 0662ms total)
T1124 017:745 JLINK_ReadReg(PSP)  returns 0x20001000 (0000ms, 0662ms total)
T1124 017:745 JLINK_ReadReg(CFBP)  returns 0x00000000 (0000ms, 0662ms total)
T05BC 017:745 JLINK_ReadMemU32(0xE0001004, 0x0001 Items, ...) -- CPU_ReadMem(4 bytes @ 0xE0001004) - Data: DB 1A E0 04  returns 0x01 (0001ms, 0663ms total)
T05BC 017:748 JLINK_ReadMem (0x0800055A, 0x0002 Bytes, ...) -- CPU_ReadMem(64 bytes @ 0x08000540) -- Updating C cache (64 bytes @ 0x08000540) -- Read from C cache (2 bytes @ 0x0800055A) - Data: F0 E7  returns 0x00 (0001ms, 0664ms total)
T05BC 017:749 JLINK_ReadMem (0x0800055C, 0x003C Bytes, ...) -- CPU_ReadMem(64 bytes @ 0x08000580) -- Updating C cache (64 bytes @ 0x08000580) -- Read from C cache (60 bytes @ 0x0800055C) - Data: 00 18 01 40 FF FF 2F 00 74 05 00 08 00 00 00 20 ...  returns 0x00 (0001ms, 0665ms total)
T1124 018:194 JLINK_Step() -- Read from C cache (2 bytes @ 0x0800055A) -- Simulated  returns 0x00 (0000ms, 0665ms total)
T1124 018:194 JLINK_ReadReg(R15 (PC))  returns 0x0800053E (0000ms, 0665ms total)
T1124 018:194 JLINK_ReadReg(XPSR)  returns 0x61000000 (0000ms, 0665ms total)
T1124 018:194 JLINK_ReadReg(R0)  returns 0x00000000 (0000ms, 0665ms total)
T1124 018:194 JLINK_ReadReg(R1)  returns 0x00000040 (0000ms, 0665ms total)
T1124 018:194 JLINK_ReadReg(R2)  returns 0x40011800 (0000ms, 0665ms total)
T1124 018:194 JLINK_ReadReg(R3)  returns 0x00000000 (0000ms, 0665ms total)
T1124 018:194 JLINK_ReadReg(R4)  returns 0x00000000 (0000ms, 0665ms total)
T1124 018:194 JLINK_ReadReg(R5)  returns 0x20000000 (0000ms, 0665ms total)
T1124 018:194 JLINK_ReadReg(R6)  returns 0x00000000 (0000ms, 0665ms total)
T1124 018:194 JLINK_ReadReg(R7)  returns 0x00000000 (0000ms, 0665ms total)
T1124 018:194 JLINK_ReadReg(R8)  returns 0x00000000 (0000ms, 0665ms total)
T1124 018:194 JLINK_ReadReg(R9)  returns 0x20000160 (0000ms, 0665ms total)
T1124 018:194 JLINK_ReadReg(R10)  returns 0x08000574 (0000ms, 0665ms total)
T1124 018:194 JLINK_ReadReg(R11)  returns 0x00000000 (0000ms, 0665ms total)
T1124 018:194 JLINK_ReadReg(R12)  returns 0x00000040 (0000ms, 0665ms total)
T1124 018:194 JLINK_ReadReg(R13 (SP))  returns 0x20000660 (0000ms, 0665ms total)
T1124 018:194 JLINK_ReadReg(R14)  returns 0x0800055B (0000ms, 0665ms total)
T1124 018:194 JLINK_ReadReg(R15 (PC))  returns 0x0800053E (0000ms, 0665ms total)
T1124 018:194 JLINK_ReadReg(XPSR)  returns 0x61000000 (0000ms, 0665ms total)
T1124 018:194 JLINK_ReadReg(MSP)  returns 0x20000660 (0000ms, 0665ms total)
T1124 018:194 JLINK_ReadReg(PSP)  returns 0x20001000 (0000ms, 0665ms total)
T1124 018:194 JLINK_ReadReg(CFBP)  returns 0x00000000 (0000ms, 0665ms total)
T05BC 018:195 JLINK_ReadMemU32(0xE0001004, 0x0001 Items, ...) - Data: DB 1A E0 04  returns 0x01 (0000ms, 0665ms total)
T05BC 018:197 JLINK_ReadMem (0x0800053E, 0x0002 Bytes, ...) -- CPU_ReadMem(64 bytes @ 0x08000500) -- Updating C cache (64 bytes @ 0x08000500) -- Read from C cache (2 bytes @ 0x0800053E) - Data: 40 21  returns 0x00 (0001ms, 0666ms total)
T05BC 018:198 JLINK_ReadMem (0x08000540, 0x003C Bytes, ...) -- Read from C cache (60 bytes @ 0x08000540) - Data: 06 48 FF F7 26 FF 06 48 FF F7 8F FE 40 21 03 48 ...  returns 0x00 (0000ms, 0666ms total)
T1124 018:474 JLINK_Step() -- Read from C cache (2 bytes @ 0x0800053E) -- Simulated  returns 0x00 (0000ms, 0666ms total)
T1124 018:475 JLINK_ReadReg(R15 (PC))  returns 0x08000540 (0000ms, 0666ms total)
T1124 018:475 JLINK_ReadReg(XPSR)  returns 0x21000000 (0000ms, 0666ms total)
T1124 018:475 JLINK_Step() -- Read from C cache (2 bytes @ 0x08000540) -- Read from C cache (4 bytes @ 0x0800055C) -- Simulated  returns 0x00 (0000ms, 0666ms total)
T1124 018:475 JLINK_ReadReg(R15 (PC))  returns 0x08000542 (0000ms, 0666ms total)
T1124 018:475 JLINK_ReadReg(XPSR)  returns 0x21000000 (0000ms, 0666ms total)
T1124 018:475 JLINK_SetBPEx(Addr = 0x08000546, Type = 0xFFFFFFF2)  returns 0x00000010 (0000ms, 0666ms total)
T1124 018:475 JLINK_SetBPEx(Addr = 0x0800053E, Type = 0xFFFFFFF2)  returns 0x00000011 (0000ms, 0666ms total)
T1124 018:475 JLINK_SetBPEx(Addr = 0x0800054C, Type = 0xFFFFFFF2)  returns 0x00000012 (0000ms, 0666ms total)
T1124 018:475 JLINK_Go() -- CPU_WriteMem(4 bytes @ 0xE0002008) -- CPU_WriteMem(4 bytes @ 0xE0001004) (0001ms, 0667ms total)
T1124 018:577 JLINK_IsHalted()  returns TRUE (0003ms, 0670ms total)
T1124 018:580 JLINK_Halt()  returns 0x00 (0000ms, 0667ms total)
T1124 018:580 JLINK_IsHalted()  returns TRUE (0000ms, 0667ms total)
T1124 018:580 JLINK_IsHalted()  returns TRUE (0000ms, 0667ms total)
T1124 018:580 JLINK_IsHalted()  returns TRUE (0000ms, 0667ms total)
T1124 018:580 JLINK_ReadReg(R15 (PC))  returns 0x08000546 (0000ms, 0667ms total)
T1124 018:580 JLINK_ReadReg(XPSR)  returns 0x21000000 (0000ms, 0667ms total)
T1124 018:580 JLINK_ClrBPEx(BPHandle = 0x00000010)  returns 0x00 (0000ms, 0667ms total)
T1124 018:580 JLINK_ClrBPEx(BPHandle = 0x00000011)  returns 0x00 (0000ms, 0667ms total)
T1124 018:580 JLINK_ClrBPEx(BPHandle = 0x00000012)  returns 0x00 (0000ms, 0667ms total)
T1124 018:580 JLINK_ReadMemU32(0xE000ED30, 0x0001 Items, ...) -- CPU_ReadMem(4 bytes @ 0xE000ED30) - Data: 03 00 00 00  returns 0x01 (0001ms, 0668ms total)
T1124 018:581 JLINK_ReadMemU32(0xE0001028, 0x0001 Items, ...) -- CPU_ReadMem(4 bytes @ 0xE0001028) - Data: 00 00 00 00  returns 0x01 (0001ms, 0669ms total)
T1124 018:582 JLINK_ReadMemU32(0xE0001038, 0x0001 Items, ...) -- CPU_ReadMem(4 bytes @ 0xE0001038) - Data: 00 02 00 00  returns 0x01 (0000ms, 0669ms total)
T1124 018:582 JLINK_ReadMemU32(0xE0001048, 0x0001 Items, ...) -- CPU_ReadMem(4 bytes @ 0xE0001048) - Data: 00 00 00 00  returns 0x01 (0001ms, 0670ms total)
T1124 018:583 JLINK_ReadMemU32(0xE0001058, 0x0001 Items, ...) -- CPU_ReadMem(4 bytes @ 0xE0001058) - Data: 00 00 00 00  returns 0x01 (0001ms, 0671ms total)
T1124 018:584 JLINK_ReadReg(R0)  returns 0x40011800 (0000ms, 0671ms total)
T1124 018:584 JLINK_ReadReg(R1)  returns 0x00000040 (0000ms, 0671ms total)
T1124 018:584 JLINK_ReadReg(R2)  returns 0x40011800 (0000ms, 0671ms total)
T1124 018:584 JLINK_ReadReg(R3)  returns 0x00000000 (0000ms, 0671ms total)
T1124 018:584 JLINK_ReadReg(R4)  returns 0x00000000 (0000ms, 0671ms total)
T1124 018:584 JLINK_ReadReg(R5)  returns 0x20000000 (0000ms, 0671ms total)
T1124 018:584 JLINK_ReadReg(R6)  returns 0x00000000 (0000ms, 0671ms total)
T1124 018:584 JLINK_ReadReg(R7)  returns 0x00000000 (0000ms, 0671ms total)
T1124 018:584 JLINK_ReadReg(R8)  returns 0x00000000 (0000ms, 0671ms total)
T1124 018:584 JLINK_ReadReg(R9)  returns 0x20000160 (0000ms, 0671ms total)
T1124 018:584 JLINK_ReadReg(R10)  returns 0x08000574 (0000ms, 0671ms total)
T1124 018:584 JLINK_ReadReg(R11)  returns 0x00000000 (0000ms, 0671ms total)
T1124 018:584 JLINK_ReadReg(R12)  returns 0x00000040 (0000ms, 0671ms total)
T1124 018:584 JLINK_ReadReg(R13 (SP))  returns 0x20000660 (0000ms, 0671ms total)
T1124 018:584 JLINK_ReadReg(R14)  returns 0x08000547 (0000ms, 0671ms total)
T1124 018:584 JLINK_ReadReg(R15 (PC))  returns 0x08000546 (0000ms, 0671ms total)
T1124 018:584 JLINK_ReadReg(XPSR)  returns 0x21000000 (0000ms, 0671ms total)
T1124 018:584 JLINK_ReadReg(MSP)  returns 0x20000660 (0000ms, 0671ms total)
T1124 018:584 JLINK_ReadReg(PSP)  returns 0x20001000 (0000ms, 0671ms total)
T1124 018:584 JLINK_ReadReg(CFBP)  returns 0x00000000 (0000ms, 0671ms total)
T05BC 018:584 JLINK_ReadMemU32(0xE0001004, 0x0001 Items, ...) -- CPU_ReadMem(4 bytes @ 0xE0001004) - Data: EA 1A E0 04  returns 0x01 (0001ms, 0672ms total)
T05BC 018:587 JLINK_ReadMem (0x08000546, 0x0002 Bytes, ...) -- CPU_ReadMem(64 bytes @ 0x08000540) -- Updating C cache (64 bytes @ 0x08000540) -- Read from C cache (2 bytes @ 0x08000546) - Data: 06 48  returns 0x00 (0001ms, 0673ms total)
T05BC 018:588 JLINK_ReadMem (0x08000548, 0x003C Bytes, ...) -- CPU_ReadMem(64 bytes @ 0x08000580) -- Updating C cache (64 bytes @ 0x08000580) -- Read from C cache (60 bytes @ 0x08000548) - Data: FF F7 8F FE 40 21 03 48 FF F7 21 FF 02 48 FF F7 ...  returns 0x00 (0001ms, 0674ms total)
T1124 018:770 JLINK_Step() -- Read from C cache (2 bytes @ 0x08000546) -- Read from C cache (4 bytes @ 0x08000560) -- Simulated  returns 0x00 (0000ms, 0674ms total)
T1124 018:770 JLINK_ReadReg(R15 (PC))  returns 0x08000548 (0000ms, 0674ms total)
T1124 018:770 JLINK_ReadReg(XPSR)  returns 0x21000000 (0000ms, 0674ms total)
T1124 018:770 JLINK_SetBPEx(Addr = 0x0800053E, Type = 0xFFFFFFF2)  returns 0x00000013 (0000ms, 0674ms total)
T1124 018:770 JLINK_SetBPEx(Addr = 0x0800054C, Type = 0xFFFFFFF2)  returns 0x00000014 (0000ms, 0674ms total)
T1124 018:770 JLINK_Go() -- CPU_WriteMem(4 bytes @ 0xE0002008) -- CPU_WriteMem(4 bytes @ 0xE000200C) -- CPU_WriteMem(4 bytes @ 0xE0002010) -- CPU_WriteMem(4 bytes @ 0xE0001004) (0003ms, 0677ms total)
T1124 018:874 JLINK_IsHalted()  returns FALSE (0000ms, 0677ms total)
T1124 018:975 JLINK_IsHalted()  returns FALSE (0001ms, 0678ms total)
T1124 019:076 JLINK_IsHalted()  returns FALSE (0001ms, 0678ms total)
T1124 019:178 JLINK_IsHalted()  returns FALSE (0000ms, 0677ms total)
T1124 019:278 JLINK_ReadMemU32(0xE0001004, 0x0001 Items, ...) -- CPU is running -- CPU_ReadMem(4 bytes @ 0xE0001004) - Data: 72 6A 0B 07  returns 0x01 (0001ms, 0678ms total)
T1124 019:279 JLINK_IsHalted()  returns FALSE (0000ms, 0678ms total)
T1124 019:380 JLINK_IsHalted()  returns TRUE (0003ms, 0681ms total)
T1124 019:383 JLINK_Halt()  returns 0x00 (0000ms, 0678ms total)
T1124 019:383 JLINK_IsHalted()  returns TRUE (0000ms, 0678ms total)
T1124 019:383 JLINK_IsHalted()  returns TRUE (0000ms, 0678ms total)
T1124 019:383 JLINK_IsHalted()  returns TRUE (0000ms, 0678ms total)
T1124 019:383 JLINK_ReadReg(R15 (PC))  returns 0x0800054C (0000ms, 0678ms total)
T1124 019:383 JLINK_ReadReg(XPSR)  returns 0x61000000 (0000ms, 0678ms total)
T1124 019:383 JLINK_ClrBPEx(BPHandle = 0x00000013)  returns 0x00 (0000ms, 0678ms total)
T1124 019:383 JLINK_ClrBPEx(BPHandle = 0x00000014)  returns 0x00 (0000ms, 0678ms total)
T1124 019:383 JLINK_ReadMemU32(0xE000ED30, 0x0001 Items, ...) -- CPU_ReadMem(4 bytes @ 0xE000ED30) - Data: 03 00 00 00  returns 0x01 (0000ms, 0678ms total)
T1124 019:383 JLINK_ReadMemU32(0xE0001028, 0x0001 Items, ...) -- CPU_ReadMem(4 bytes @ 0xE0001028) - Data: 00 00 00 00  returns 0x01 (0001ms, 0679ms total)
